
T4350 000:455 SEGGER J-Link V4.80g Log File (0001ms, 0267ms total)
T4350 000:455 DLL Compiled: Feb 13 2014 20:50:02 (0001ms, 0267ms total)
T4350 000:455 Logging started @ 2019-03-31 15:27 (0001ms, 0267ms total)
T4350 000:456 JLINK_SetWarnOutHandler(...) (0000ms, 0267ms total)
T4350 000:457 JLINK_OpenEx(...)
Firmware: J-Link ARM-OB STM32 compiled Aug 22 2012 19:52:04
Hardware: V7.00
S/N: 20090928
Feature(s): RDI,FlashDL,FlashBP,JFlash,GDBFull  returns O.K. (0262ms, 0529ms total)
T4350 000:719 JLINK_SetErrorOutHandler(...) (0000ms, 0529ms total)
T4350 000:719 JLINK_ExecCommand("ProjectFile = "H:\Electronics_design_contest\资料\2，标准例程-库函数版本\实验0 Template工程模板\USER\JLinkSettings.ini"", ...)  returns 0x00 (0001ms, 0530ms total)
T4350 000:720 JLINK_ExecCommand("Device = STM32F407ZG", ...)Device "STM32F407ZG" selected (1024 KB flash, 128 KB RAM).  returns 0x00 (0005ms, 0535ms total)
T4350 000:725 JLINK_ExecCommand("DisableConnectionTimeout", ...)  returns 0x01 (0000ms, 0535ms total)
T4350 000:725 JLINK_GetHardwareVersion()  returns 0x11170 (0000ms, 0535ms total)
T4350 000:725 JLINK_GetDLLVersion()  returns 48007 (0000ms, 0535ms total)
T4350 000:725 JLINK_GetFirmwareString(...) (0000ms, 0535ms total)
T4350 000:726 JLINK_GetDLLVersion()  returns 48007 (0000ms, 0535ms total)
T4350 000:726 JLINK_GetCompileDateTime() (0000ms, 0535ms total)
T4350 000:726 JLINK_GetFirmwareString(...) (0000ms, 0535ms total)
T4350 000:727 JLINK_GetHardwareVersion()  returns 0x11170 (0000ms, 0535ms total)
T4350 000:728 JLINK_TIF_Select(JLINKARM_TIF_SWD)  returns 0x00 (0000ms, 0535ms total)
T4350 000:728 JLINK_SetSpeed(2000) (0000ms, 0535ms total)
T4350 000:728 JLINK_GetId() >0x108 TIF>Found SWD-DP with ID 0x2BA01477 >0x0D TIF> >0x28 TIF> >0x0D TIF> >0x28 TIF> >0x0D TIF> >0x21 TIF> >0x0D TIF> >0x28 TIF> >0x0D TIF> >0x28 TIF> >0x0D TIF> >0x28 TIF> >0x0D TIF> >0x21 TIF> >0x0D TIF> >0x21 TIF> >0x0D TIF> >0x28 TIF> >0x0D TIF> >0x21 TIF> >0x0D TIF> >0x21 TIF> >0x0D TIF> >0x28 TIF> >0x0D TIF> >0x21 TIF> >0x0D TIF> >0x21 TIF> >0x108 TIF>Found SWD-DP with ID 0x2BA01477 >0x0D TIF> >0x21 TIF> >0x0D TIF> >0x28 TIF> >0x0D TIF> >0x28 TIF> >0x0D TIF> >0x21 TIF>
 >0x0D TIF> >0x28 TIF> >0x0D TIF> >0x21 TIF> >0x0D TIF> >0x21 TIF> >0x0D TIF> >0x21 TIF> >0x0D TIF> >0x21 TIF> >0x0D TIF> >0x28 TIF> >0x0D TIF> >0x28 TIF> >0x0D TIF> >0x21 TIF> >0x0D TIF> >0x28 TIF> >0x0D TIF> >0x28 TIF> >0x0D TIF> >0x28 TIF> >0x0D TIF> >0x21 TIF> >0x0D TIF> >0x21 TIF> >0x0D TIF> >0x28 TIF> >0x0D TIF> >0x21 TIF> >0x0D TIF> >0x21 TIF>Found Cortex-M4 r0p1, Little endian. -- CPU_WriteMem(4 bytes @ 0xE0002000) -- CPU_ReadMem(4 bytes @ 0xE000EDF0) -- CPU_ReadMem(4 bytes @ 0xE0002000)
FPUnit: 6 code (BP) slots and 2 literal slots -- CPU_ReadMem(4 bytes @ 0xE000EDFC) -- CPU_ReadMem(4 bytes @ 0xE0001000) -- CPU_WriteMem(4 bytes @ 0xE0001000) -- CPU_ReadMem(4 bytes @ 0xE00FF010)TPIU fitted. -- CPU_ReadMem(4 bytes @ 0xE00FF014)ETM fitted. -- CPU_ReadMem(4 bytes @ 0xE00FF018) >0x0D TIF> >0x21 TIF>  returns 0x2BA01477 (0027ms, 0562ms total)
T4350 000:755 JLINK_GetDeviceFamily()  returns 14 (0000ms, 0562ms total)
T4350 000:756 JLINK_ReadMem (0xE00FFFF0, 0x0010 Bytes, ...) -- CPU is running -- CPU_ReadMem(16 bytes @ 0xE00FFFF0) -- Data:  0D 00 00 00 10 00 00 00 05 00 00 00 B1 00 00 00  returns 0x00 (0000ms, 0562ms total)
T4350 000:756 JLINK_ReadMem (0xE00FFFD0, 0x0020 Bytes, ...) -- CPU is running -- CPU_ReadMem(32 bytes @ 0xE00FFFD0) -- Data:  00 00 00 00 00 00 00 00 00 00 00 00 00 00 00 00 ...  returns 0x00 (0001ms, 0563ms total)
T4350 000:757 JLINK_ReadMem (0xE00FF000, 0x0018 Bytes, ...) -- CPU is running -- CPU_ReadMem(24 bytes @ 0xE00FF000) -- Data:  03 F0 F0 FF 03 20 F0 FF 03 30 F0 FF 03 10 F0 FF ...  returns 0x00 (0001ms, 0564ms total)
T4350 000:758 JLINK_ReadMemU32(0xE000ED00, 0x0001 Items, ...) -- CPU is running -- CPU_ReadMem(4 bytes @ 0xE000ED00) -- Data:  41 C2 0F 41  returns 0x01 (0001ms, 0565ms total)
T4350 000:759 JLINK_ReadMemU32(0xE000EF40, 0x0001 Items, ...) -- CPU is running -- CPU_ReadMem(4 bytes @ 0xE000EF40) -- Data:  21 00 11 10  returns 0x01 (0000ms, 0565ms total)
T4350 000:760 JLINK_ReadMemU32(0xE000EF44, 0x0001 Items, ...) -- CPU is running -- CPU_ReadMem(4 bytes @ 0xE000EF44) -- Data:  11 00 00 11  returns 0x01 (0000ms, 0565ms total)
T4350 000:760 JLINK_SetResetType(JLINKARM_RESET_TYPE_NORMAL)  returns JLINKARM_RESET_TYPE_NORMAL (0000ms, 0565ms total)
T4350 000:760 JLINK_Reset() -- CPU is running -- CPU_WriteMem(4 bytes @ 0xE000EDF0) -- CPU is running -- CPU_WriteMem(4 bytes @ 0xE000EDFC) >0x35 TIF> -- CPU is running -- CPU_WriteMem(4 bytes @ 0xE000ED0C) -- CPU is running -- CPU_ReadMem(4 bytes @ 0xE000EDF0) -- CPU is running -- CPU_ReadMem(4 bytes @ 0xE000EDF0) -- CPU is running -- CPU_WriteMem(4 bytes @ 0xE000EDF0) -- CPU is running -- CPU_WriteMem(4 bytes @ 0xE000EDFC) -- CPU is running -- CPU_ReadMem(4 bytes @ 0xE000EDF0)
 -- CPU_WriteMem(4 bytes @ 0xE0002000) -- CPU_ReadMem(4 bytes @ 0xE000EDFC) -- CPU_ReadMem(4 bytes @ 0xE0001000) (0020ms, 0585ms total)
T4350 000:780 JLINK_ReadReg(R15 (PC))  returns 0x08000460 (0000ms, 0585ms total)
T4350 000:780 JLINK_ReadReg(XPSR)  returns 0x01000000 (0000ms, 0585ms total)
T4350 000:780 JLINK_Halt()  returns 0x00 (0000ms, 0585ms total)
T4350 000:780 JLINK_IsHalted()  returns TRUE (0000ms, 0585ms total)
T4350 000:780 JLINK_ReadMemU32(0xE000EDF0, 0x0001 Items, ...) -- CPU_ReadMem(4 bytes @ 0xE000EDF0) -- Data:  03 00 03 00  returns 0x01 (0000ms, 0585ms total)
T4350 000:780 JLINK_WriteU32(0xE000EDF0, 0xA05F0003) -- CPU_WriteMem(4 bytes @ 0xE000EDF0)  returns 0x00 (0001ms, 0586ms total)
T4350 000:781 JLINK_WriteU32(0xE000EDFC, 0x01000000) -- CPU_WriteMem(4 bytes @ 0xE000EDFC)  returns 0x00 (0000ms, 0586ms total)
T4350 000:782 JLINK_GetHWStatus(...)  returns 0x00 (0000ms, 0586ms total)
T4350 000:783 JLINK_GetNumBPUnits(Type = 0xFFFFFF00)  returns 0x06 (0000ms, 0586ms total)
T4350 000:783 JLINK_GetNumBPUnits(Type = 0xF0)  returns 0x2000 (0000ms, 0586ms total)
T4350 000:783 JLINK_GetNumWPUnits()  returns 0x04 (0000ms, 0586ms total)
T4350 000:783 JLINK_GetSpeed()  returns 0x7D0 (0000ms, 0586ms total)
T4350 000:784 JLINK_ReadMemU32(0xE000E004, 0x0001 Items, ...) -- CPU_ReadMem(4 bytes @ 0xE000E004) -- Data:  02 00 00 00  returns 0x01 (0000ms, 0586ms total)
T4350 000:784 JLINK_ReadMemU32(0xE000E004, 0x0001 Items, ...) -- CPU_ReadMem(4 bytes @ 0xE000E004) -- Data:  02 00 00 00  returns 0x01 (0001ms, 0587ms total)
T4350 000:785 JLINK_WriteMem(0xE0001000, 0x001C Bytes, ...) -- Data:  01 00 00 00 00 00 00 00 00 00 00 00 00 00 00 00 ... -- CPU_WriteMem(28 bytes @ 0xE0001000)  returns 0x1C (0001ms, 0588ms total)
T4350 000:786 JLINK_ReadMem (0xE0001000, 0x001C Bytes, ...) -- CPU_ReadMem(28 bytes @ 0xE0001000) -- Data:  01 00 00 40 00 00 00 00 00 00 00 00 00 00 00 00 ...  returns 0x00 (0000ms, 0588ms total)
T4350 000:786 JLINK_ReadReg(R15 (PC))  returns 0x08000460 (0000ms, 0588ms total)
T4350 000:786 JLINK_ReadReg(XPSR)  returns 0x01000000 (0001ms, 0589ms total)
T4350 000:896 JLINK_SetResetType(JLINKARM_RESET_TYPE_NORMAL)  returns JLINKARM_RESET_TYPE_NORMAL (0000ms, 0589ms total)
T4350 000:896 JLINK_Reset() -- CPU_WriteMem(4 bytes @ 0xE000EDF0) -- CPU_WriteMem(4 bytes @ 0xE000EDFC) >0x35 TIF> -- CPU_WriteMem(4 bytes @ 0xE000ED0C) -- CPU_ReadMem(4 bytes @ 0xE000EDF0) -- CPU_ReadMem(4 bytes @ 0xE000EDF0) -- CPU_WriteMem(4 bytes @ 0xE000EDF0) -- CPU_WriteMem(4 bytes @ 0xE000EDFC) -- CPU is running -- CPU_ReadMem(4 bytes @ 0xE000EDF0) -- CPU_WriteMem(4 bytes @ 0xE0002000) -- CPU_ReadMem(4 bytes @ 0xE000EDFC) -- CPU_ReadMem(4 bytes @ 0xE0001000) (0019ms, 0608ms total)
T4350 000:915 JLINK_ReadReg(R15 (PC))  returns 0x08000460 (0000ms, 0608ms total)
T4350 000:915 JLINK_ReadReg(XPSR)  returns 0x01000000 (0000ms, 0608ms total)
T4350 000:915 JLINK_ReadMemU32(0xE0001004, 0x0001 Items, ...) -- CPU_ReadMem(4 bytes @ 0xE0001004) -- Data:  ED 1A 00 00  returns 0x01 (0000ms, 0608ms total)
T4350 001:173 JLINK_ReadMem (0x08000460, 0x003C Bytes, ...) -- CPU_ReadMem(128 bytes @ 0x08000440) -- Updating C cache (128 bytes @ 0x08000440) -- Read from C cache (60 bytes @ 0x08000460) -- Data:  09 48 80 47 09 48 00 47 FE E7 FE E7 FE E7 FE E7 ...  returns 0x00 (0002ms, 0610ms total)
T45D8 003:735 JLINK_SetBPEx(Addr = 0x08000226, Type = 0xFFFFFFF2)  returns 0x00000001 (0001ms, 0611ms total)
T45D8 003:736 JLINK_Go() -- CPU_WriteMem(4 bytes @ 0xE0002000) -- CPU_WriteMem(4 bytes @ 0xE0002008) -- CPU_WriteMem(4 bytes @ 0xE000200C) -- CPU_WriteMem(4 bytes @ 0xE0002010) -- CPU_WriteMem(4 bytes @ 0xE0002014) -- CPU_WriteMem(4 bytes @ 0xE0002018) -- CPU_WriteMem(4 bytes @ 0xE000201C) -- CPU_WriteMem(4 bytes @ 0xE0001004) (0009ms, 0620ms total)
T45D8 003:846 JLINK_IsHalted()  returns TRUE (0003ms, 0623ms total)
T45D8 003:849 JLINK_Halt()  returns 0x00 (0000ms, 0620ms total)
T45D8 003:849 JLINK_IsHalted()  returns TRUE (0001ms, 0621ms total)
T45D8 003:850 JLINK_IsHalted()  returns TRUE (0000ms, 0620ms total)
T45D8 003:850 JLINK_IsHalted()  returns TRUE (0000ms, 0620ms total)
T45D8 003:850 JLINK_ReadReg(R15 (PC))  returns 0x08000226 (0000ms, 0620ms total)
T45D8 003:850 JLINK_ReadReg(XPSR)  returns 0x21000000 (0000ms, 0620ms total)
T45D8 003:850 JLINK_ClrBPEx(BPHandle = 0x00000001)  returns 0x00 (0000ms, 0620ms total)
T45D8 003:850 JLINK_ReadMemU32(0xE000ED30, 0x0001 Items, ...) -- CPU_ReadMem(4 bytes @ 0xE000ED30) -- Data:  03 00 00 00  returns 0x01 (0000ms, 0620ms total)
T45D8 003:851 JLINK_ReadMemU32(0xE0001028, 0x0001 Items, ...) -- CPU_ReadMem(4 bytes @ 0xE0001028) -- Data:  00 00 00 00  returns 0x01 (0000ms, 0620ms total)
T45D8 003:851 JLINK_ReadMemU32(0xE0001038, 0x0001 Items, ...) -- CPU_ReadMem(4 bytes @ 0xE0001038) -- Data:  00 02 00 00  returns 0x01 (0001ms, 0621ms total)
T45D8 003:852 JLINK_ReadMemU32(0xE0001048, 0x0001 Items, ...) -- CPU_ReadMem(4 bytes @ 0xE0001048) -- Data:  00 00 00 00  returns 0x01 (0001ms, 0622ms total)
T45D8 003:853 JLINK_ReadMemU32(0xE0001058, 0x0001 Items, ...) -- CPU_ReadMem(4 bytes @ 0xE0001058) -- Data:  00 00 00 00  returns 0x01 (0001ms, 0623ms total)
T45D8 003:854 JLINK_ReadReg(R0)  returns 0x20000158 (0000ms, 0623ms total)
T45D8 003:854 JLINK_ReadReg(R1)  returns 0x20000358 (0000ms, 0623ms total)
T45D8 003:854 JLINK_ReadReg(R2)  returns 0x20000358 (0000ms, 0623ms total)
T45D8 003:854 JLINK_ReadReg(R3)  returns 0x20000358 (0000ms, 0623ms total)
T45D8 003:854 JLINK_ReadReg(R4)  returns 0x00000000 (0000ms, 0623ms total)
T45D8 003:854 JLINK_ReadReg(R5)  returns 0x200000F4 (0000ms, 0623ms total)
T45D8 003:854 JLINK_ReadReg(R6)  returns 0x00000000 (0000ms, 0623ms total)
T45D8 003:854 JLINK_ReadReg(R7)  returns 0x00000000 (0001ms, 0624ms total)
T45D8 003:855 JLINK_ReadReg(R8)  returns 0x00000000 (0000ms, 0624ms total)
T45D8 003:855 JLINK_ReadReg(R9)  returns 0x00000000 (0000ms, 0624ms total)
T45D8 003:855 JLINK_ReadReg(R10)  returns 0x080014A4 (0000ms, 0624ms total)
T45D8 003:855 JLINK_ReadReg(R11)  returns 0x00000000 (0000ms, 0624ms total)
T45D8 003:855 JLINK_ReadReg(R12)  returns 0x20000134 (0000ms, 0624ms total)
T45D8 003:855 JLINK_ReadReg(R13 (SP))  returns 0x20000758 (0000ms, 0624ms total)
T45D8 003:855 JLINK_ReadReg(R14)  returns 0x08000217 (0000ms, 0624ms total)
T45D8 003:855 JLINK_ReadReg(R15 (PC))  returns 0x08000226 (0000ms, 0624ms total)
T45D8 003:855 JLINK_ReadReg(XPSR)  returns 0x21000000 (0000ms, 0624ms total)
T45D8 003:855 JLINK_ReadReg(MSP)  returns 0x20000758 (0000ms, 0624ms total)
T45D8 003:855 JLINK_ReadReg(PSP)  returns 0x00000000 (0000ms, 0624ms total)
T45D8 003:855 JLINK_ReadReg(CFBP)  returns 0x04000000 (0000ms, 0624ms total)
T45D8 003:855 JLINK_ReadReg(FPSCR)  returns 0x03000000 (0005ms, 0629ms total)
T45D8 003:860 JLINK_ReadReg(FPS0)  returns 0x00000000 (0000ms, 0629ms total)
T45D8 003:860 JLINK_ReadReg(FPS1)  returns 0x00000000 (0000ms, 0629ms total)
T45D8 003:860 JLINK_ReadReg(FPS2)  returns 0x00000000 (0000ms, 0629ms total)
T45D8 003:860 JLINK_ReadReg(FPS3)  returns 0x00000000 (0000ms, 0629ms total)
T45D8 003:860 JLINK_ReadReg(FPS4)  returns 0x00000000 (0001ms, 0630ms total)
T45D8 003:861 JLINK_ReadReg(FPS5)  returns 0x00000000 (0000ms, 0630ms total)
T45D8 003:861 JLINK_ReadReg(FPS6)  returns 0x00000000 (0000ms, 0630ms total)
T45D8 003:861 JLINK_ReadReg(FPS7)  returns 0x00000000 (0000ms, 0630ms total)
T45D8 003:861 JLINK_ReadReg(FPS8)  returns 0x00000000 (0000ms, 0630ms total)
T45D8 003:861 JLINK_ReadReg(FPS9)  returns 0x00000000 (0000ms, 0630ms total)
T45D8 003:861 JLINK_ReadReg(FPS10)  returns 0x00000000 (0000ms, 0630ms total)
T45D8 003:861 JLINK_ReadReg(FPS11)  returns 0x00000000 (0000ms, 0630ms total)
T45D8 003:861 JLINK_ReadReg(FPS12)  returns 0x00000000 (0000ms, 0630ms total)
T45D8 003:861 JLINK_ReadReg(FPS13)  returns 0x00000000 (0000ms, 0630ms total)
T45D8 003:861 JLINK_ReadReg(FPS14)  returns 0x00000000 (0000ms, 0630ms total)
T45D8 003:861 JLINK_ReadReg(FPS15)  returns 0x00000000 (0000ms, 0630ms total)
T45D8 003:861 JLINK_ReadReg(FPS16)  returns 0x00000000 (0000ms, 0630ms total)
T45D8 003:861 JLINK_ReadReg(FPS17)  returns 0x00000000 (0000ms, 0630ms total)
T45D8 003:861 JLINK_ReadReg(FPS18)  returns 0x00000000 (0000ms, 0630ms total)
T45D8 003:861 JLINK_ReadReg(FPS19)  returns 0x00000000 (0000ms, 0630ms total)
T45D8 003:861 JLINK_ReadReg(FPS20)  returns 0x00000000 (0000ms, 0630ms total)
T45D8 003:861 JLINK_ReadReg(FPS31)  returns 0x00000000 (0000ms, 0630ms total)
T45D8 003:861 JLINK_ReadReg(FPS7)  returns 0x00000000 (0000ms, 0630ms total)
T45D8 003:861 JLINK_ReadReg(FPS8)  returns 0x00000000 (0001ms, 0631ms total)
T45D8 003:862 JLINK_ReadReg(FPS9)  returns 0x00000000 (0000ms, 0631ms total)
T45D8 003:862 JLINK_ReadReg(FPS10)  returns 0x00000000 (0000ms, 0631ms total)
T45D8 003:862 JLINK_ReadReg(FPS11)  returns 0x00000000 (0000ms, 0631ms total)
T45D8 003:862 JLINK_ReadReg(FPS12)  returns 0x00000000 (0000ms, 0631ms total)
T45D8 003:862 JLINK_ReadReg(FPS13)  returns 0x00000000 (0000ms, 0631ms total)
T45D8 003:862 JLINK_ReadReg(FPS14)  returns 0x00000000 (0000ms, 0631ms total)
T45D8 003:862 JLINK_ReadReg(FPS15)  returns 0x00000000 (0000ms, 0631ms total)
T45D8 003:862 JLINK_ReadReg(FPS16)  returns 0x00000000 (0000ms, 0631ms total)
T4350 003:906 JLINK_ReadMemU32(0xE0001004, 0x0001 Items, ...) -- CPU_ReadMem(4 bytes @ 0xE0001004) -- Data:  98 2B 00 00  returns 0x01 (0000ms, 0631ms total)
T45D8 008:827 JLINK_ReadMem (0x08000226, 0x0002 Bytes, ...) -- CPU_ReadMem(64 bytes @ 0x08000200) -- Updating C cache (64 bytes @ 0x08000200) -- Read from C cache (2 bytes @ 0x08000226) -- Data:  1F B5  returns 0x00 (0001ms, 0632ms total)
T45D8 008:828 JLINK_ReadMem (0x08000228, 0x003C Bytes, ...) -- CPU_ReadMem(64 bytes @ 0x08000240) -- Updating C cache (64 bytes @ 0x08000240) -- Read from C cache (60 bytes @ 0x08000228) -- Data:  68 46 00 F0 FC FB 00 20 04 B0 10 BD 70 47 00 BF ...  returns 0x00 (0001ms, 0633ms total)
T45D8 008:829 JLINK_Step() -- Read from C cache (2 bytes @ 0x08000226) -- CPU_WriteMem(24 bytes @ 0x20000740) -- Simulated  returns 0x00 (0002ms, 0635ms total)
T45D8 008:831 JLINK_ReadReg(R15 (PC))  returns 0x08000228 (0000ms, 0635ms total)
T45D8 008:831 JLINK_ReadReg(XPSR)  returns 0x21000000 (0000ms, 0635ms total)
T45D8 008:831 JLINK_ReadReg(R0)  returns 0x20000158 (0000ms, 0635ms total)
T45D8 008:831 JLINK_ReadReg(R1)  returns 0x20000358 (0000ms, 0635ms total)
T45D8 008:831 JLINK_ReadReg(R2)  returns 0x20000358 (0000ms, 0635ms total)
T45D8 008:831 JLINK_ReadReg(R3)  returns 0x20000358 (0000ms, 0635ms total)
T45D8 008:831 JLINK_ReadReg(R4)  returns 0x00000000 (0000ms, 0635ms total)
T45D8 008:831 JLINK_ReadReg(R5)  returns 0x200000F4 (0000ms, 0635ms total)
T45D8 008:831 JLINK_ReadReg(R6)  returns 0x00000000 (0000ms, 0635ms total)
T45D8 008:831 JLINK_ReadReg(R7)  returns 0x00000000 (0000ms, 0635ms total)
T45D8 008:831 JLINK_ReadReg(R8)  returns 0x00000000 (0000ms, 0635ms total)
T45D8 008:831 JLINK_ReadReg(R9)  returns 0x00000000 (0000ms, 0635ms total)
T45D8 008:831 JLINK_ReadReg(R10)  returns 0x080014A4 (0000ms, 0635ms total)
T45D8 008:831 JLINK_ReadReg(R11)  returns 0x00000000 (0000ms, 0635ms total)
T45D8 008:831 JLINK_ReadReg(R12)  returns 0x20000134 (0001ms, 0636ms total)
T45D8 008:832 JLINK_ReadReg(R13 (SP))  returns 0x20000740 (0000ms, 0636ms total)
T45D8 008:832 JLINK_ReadReg(R14)  returns 0x08000217 (0000ms, 0636ms total)
T45D8 008:832 JLINK_ReadReg(R15 (PC))  returns 0x08000228 (0000ms, 0636ms total)
T45D8 008:832 JLINK_ReadReg(XPSR)  returns 0x21000000 (0000ms, 0636ms total)
T45D8 008:832 JLINK_ReadReg(MSP)  returns 0x20000740 (0000ms, 0636ms total)
T45D8 008:832 JLINK_ReadReg(PSP)  returns 0x00000000 (0000ms, 0636ms total)
T45D8 008:832 JLINK_ReadReg(CFBP)  returns 0x04000000 (0000ms, 0636ms total)
T45D8 008:832 JLINK_ReadReg(FPSCR)  returns 0x03000000 (0000ms, 0636ms total)
T45D8 008:832 JLINK_ReadReg(FPS0)  returns 0x00000000 (0000ms, 0636ms total)
T45D8 008:832 JLINK_ReadReg(FPS1)  returns 0x00000000 (0000ms, 0636ms total)
T45D8 008:832 JLINK_ReadReg(FPS2)  returns 0x00000000 (0000ms, 0636ms total)
T45D8 008:832 JLINK_ReadReg(FPS3)  returns 0x00000000 (0000ms, 0636ms total)
T45D8 008:832 JLINK_ReadReg(FPS4)  returns 0x00000000 (0000ms, 0636ms total)
T45D8 008:832 JLINK_ReadReg(FPS5)  returns 0x00000000 (0000ms, 0636ms total)
T45D8 008:832 JLINK_ReadReg(FPS6)  returns 0x00000000 (0000ms, 0636ms total)
T45D8 008:832 JLINK_ReadReg(FPS7)  returns 0x00000000 (0000ms, 0636ms total)
T45D8 008:832 JLINK_ReadReg(FPS8)  returns 0x00000000 (0000ms, 0636ms total)
T45D8 008:832 JLINK_ReadReg(FPS9)  returns 0x00000000 (0001ms, 0637ms total)
T45D8 008:833 JLINK_ReadReg(FPS10)  returns 0x00000000 (0000ms, 0637ms total)
T45D8 008:833 JLINK_ReadReg(FPS11)  returns 0x00000000 (0000ms, 0637ms total)
T45D8 008:833 JLINK_ReadReg(FPS12)  returns 0x00000000 (0000ms, 0637ms total)
T45D8 008:833 JLINK_ReadReg(FPS13)  returns 0x00000000 (0000ms, 0637ms total)
T45D8 008:833 JLINK_ReadReg(FPS14)  returns 0x00000000 (0000ms, 0637ms total)
T45D8 008:833 JLINK_ReadReg(FPS15)  returns 0x00000000 (0000ms, 0637ms total)
T45D8 008:833 JLINK_ReadReg(FPS16)  returns 0x00000000 (0000ms, 0637ms total)
T45D8 008:833 JLINK_ReadReg(FPS17)  returns 0x00000000 (0000ms, 0637ms total)
T45D8 008:833 JLINK_ReadReg(FPS18)  returns 0x00000000 (0000ms, 0637ms total)
T45D8 008:833 JLINK_ReadReg(FPS19)  returns 0x00000000 (0000ms, 0637ms total)
T45D8 008:833 JLINK_ReadReg(FPS20)  returns 0x00000000 (0000ms, 0637ms total)
T45D8 008:833 JLINK_ReadReg(FPS31)  returns 0x00000000 (0000ms, 0637ms total)
T45D8 008:833 JLINK_ReadReg(FPS7)  returns 0x00000000 (0000ms, 0637ms total)
T45D8 008:833 JLINK_ReadReg(FPS8)  returns 0x00000000 (0000ms, 0637ms total)
T45D8 008:833 JLINK_ReadReg(FPS9)  returns 0x00000000 (0000ms, 0637ms total)
T45D8 008:833 JLINK_ReadReg(FPS10)  returns 0x00000000 (0000ms, 0637ms total)
T45D8 008:833 JLINK_ReadReg(FPS11)  returns 0x00000000 (0000ms, 0637ms total)
T45D8 008:833 JLINK_ReadReg(FPS12)  returns 0x00000000 (0000ms, 0637ms total)
T45D8 008:833 JLINK_ReadReg(FPS13)  returns 0x00000000 (0000ms, 0637ms total)
T45D8 008:833 JLINK_ReadReg(FPS14)  returns 0x00000000 (0001ms, 0638ms total)
T45D8 008:834 JLINK_ReadReg(FPS15)  returns 0x00000000 (0000ms, 0638ms total)
T45D8 008:834 JLINK_ReadReg(FPS16)  returns 0x00000000 (0000ms, 0638ms total)
T4350 008:834 JLINK_ReadMem (0x20000754, 0x0004 Bytes, ...) -- CPU_ReadMem(64 bytes @ 0x20000740) -- Updating C cache (64 bytes @ 0x20000740) -- Read from C cache (4 bytes @ 0x20000754) -- Data:  17 02 00 08  returns 0x00 (0001ms, 0639ms total)
T4350 008:835 JLINK_ReadMemU32(0xE0001004, 0x0001 Items, ...) -- Data:  98 2B 00 00  returns 0x01 (0000ms, 0639ms total)
T4350 012:921 JLINK_ReadMem (0x20000740, 0x0004 Bytes, ...) -- Read from C cache (4 bytes @ 0x20000740) -- Data:  58 01 00 20  returns 0x00 (0000ms, 0639ms total)
T4350 012:921 JLINK_ReadMem (0x20000744, 0x0004 Bytes, ...) -- Read from C cache (4 bytes @ 0x20000744) -- Data:  58 03 00 20  returns 0x00 (0000ms, 0639ms total)
T4350 012:921 JLINK_ReadMem (0x20000748, 0x0004 Bytes, ...) -- Read from C cache (4 bytes @ 0x20000748) -- Data:  58 03 00 20  returns 0x00 (0000ms, 0639ms total)
T4350 012:921 JLINK_ReadMem (0x2000074C, 0x0004 Bytes, ...) -- Read from C cache (4 bytes @ 0x2000074C) -- Data:  58 03 00 20  returns 0x00 (0000ms, 0639ms total)
T45D8 020:666 JLINK_ReadMem (0x08000228, 0x003C Bytes, ...) -- Read from C cache (60 bytes @ 0x08000228) -- Data:  68 46 00 F0 FC FB 00 20 04 B0 10 BD 70 47 00 BF ...  returns 0x00 (0001ms, 0640ms total)
T45D8 020:667 JLINK_Step() -- Read from C cache (2 bytes @ 0x08000228) -- Simulated  returns 0x00 (0001ms, 0641ms total)
T45D8 020:668 JLINK_ReadReg(R15 (PC))  returns 0x0800022A (0000ms, 0641ms total)
T45D8 020:668 JLINK_ReadReg(XPSR)  returns 0x21000000 (0000ms, 0641ms total)
T45D8 020:669 JLINK_Step() -- Read from C cache (2 bytes @ 0x0800022A) -- Read from C cache (2 bytes @ 0x0800022C) -- Simulated  returns 0x00 (0001ms, 0642ms total)
T45D8 020:670 JLINK_ReadReg(R15 (PC))  returns 0x08000A26 (0000ms, 0642ms total)
T45D8 020:670 JLINK_ReadReg(XPSR)  returns 0x21000000 (0000ms, 0642ms total)
T45D8 020:670 JLINK_ReadReg(R0)  returns 0x20000740 (0000ms, 0642ms total)
T45D8 020:670 JLINK_ReadReg(R1)  returns 0x20000358 (0000ms, 0642ms total)
T45D8 020:670 JLINK_ReadReg(R2)  returns 0x20000358 (0000ms, 0642ms total)
T45D8 020:670 JLINK_ReadReg(R3)  returns 0x20000358 (0000ms, 0642ms total)
T45D8 020:670 JLINK_ReadReg(R4)  returns 0x00000000 (0000ms, 0642ms total)
T45D8 020:670 JLINK_ReadReg(R5)  returns 0x200000F4 (0000ms, 0642ms total)
T45D8 020:670 JLINK_ReadReg(R6)  returns 0x00000000 (0000ms, 0642ms total)
T45D8 020:670 JLINK_ReadReg(R7)  returns 0x00000000 (0000ms, 0642ms total)
T45D8 020:670 JLINK_ReadReg(R8)  returns 0x00000000 (0000ms, 0642ms total)
T45D8 020:670 JLINK_ReadReg(R9)  returns 0x00000000 (0000ms, 0642ms total)
T45D8 020:670 JLINK_ReadReg(R10)  returns 0x080014A4 (0001ms, 0643ms total)
T45D8 020:671 JLINK_ReadReg(R11)  returns 0x00000000 (0000ms, 0643ms total)
T45D8 020:671 JLINK_ReadReg(R12)  returns 0x20000134 (0000ms, 0643ms total)
T45D8 020:671 JLINK_ReadReg(R13 (SP))  returns 0x20000740 (0000ms, 0643ms total)
T45D8 020:671 JLINK_ReadReg(R14)  returns 0x0800022F (0000ms, 0643ms total)
T45D8 020:671 JLINK_ReadReg(R15 (PC))  returns 0x08000A26 (0000ms, 0643ms total)
T45D8 020:671 JLINK_ReadReg(XPSR)  returns 0x21000000 (0000ms, 0643ms total)
T45D8 020:671 JLINK_ReadReg(MSP)  returns 0x20000740 (0000ms, 0643ms total)
T45D8 020:671 JLINK_ReadReg(PSP)  returns 0x00000000 (0000ms, 0643ms total)
T45D8 020:671 JLINK_ReadReg(CFBP)  returns 0x04000000 (0000ms, 0643ms total)
T45D8 020:671 JLINK_ReadReg(FPSCR)  returns 0x03000000 (0000ms, 0643ms total)
T45D8 020:671 JLINK_ReadReg(FPS0)  returns 0x00000000 (0000ms, 0643ms total)
T45D8 020:671 JLINK_ReadReg(FPS1)  returns 0x00000000 (0000ms, 0643ms total)
T45D8 020:671 JLINK_ReadReg(FPS2)  returns 0x00000000 (0000ms, 0643ms total)
T45D8 020:671 JLINK_ReadReg(FPS3)  returns 0x00000000 (0000ms, 0643ms total)
T45D8 020:671 JLINK_ReadReg(FPS4)  returns 0x00000000 (0000ms, 0643ms total)
T45D8 020:671 JLINK_ReadReg(FPS5)  returns 0x00000000 (0000ms, 0643ms total)
T45D8 020:671 JLINK_ReadReg(FPS6)  returns 0x00000000 (0000ms, 0643ms total)
T45D8 020:671 JLINK_ReadReg(FPS7)  returns 0x00000000 (0001ms, 0644ms total)
T45D8 020:672 JLINK_ReadReg(FPS8)  returns 0x00000000 (0000ms, 0644ms total)
T45D8 020:672 JLINK_ReadReg(FPS9)  returns 0x00000000 (0000ms, 0644ms total)
T45D8 020:672 JLINK_ReadReg(FPS10)  returns 0x00000000 (0000ms, 0644ms total)
T45D8 020:672 JLINK_ReadReg(FPS11)  returns 0x00000000 (0000ms, 0644ms total)
T45D8 020:672 JLINK_ReadReg(FPS12)  returns 0x00000000 (0000ms, 0644ms total)
T45D8 020:672 JLINK_ReadReg(FPS13)  returns 0x00000000 (0000ms, 0644ms total)
T45D8 020:672 JLINK_ReadReg(FPS14)  returns 0x00000000 (0000ms, 0644ms total)
T45D8 020:672 JLINK_ReadReg(FPS15)  returns 0x00000000 (0000ms, 0644ms total)
T45D8 020:672 JLINK_ReadReg(FPS16)  returns 0x00000000 (0000ms, 0644ms total)
T45D8 020:672 JLINK_ReadReg(FPS17)  returns 0x00000000 (0000ms, 0644ms total)
T45D8 020:672 JLINK_ReadReg(FPS18)  returns 0x00000000 (0000ms, 0644ms total)
T45D8 020:672 JLINK_ReadReg(FPS19)  returns 0x00000000 (0000ms, 0644ms total)
T45D8 020:672 JLINK_ReadReg(FPS20)  returns 0x00000000 (0000ms, 0644ms total)
T45D8 020:672 JLINK_ReadReg(FPS31)  returns 0x00000000 (0000ms, 0644ms total)
T45D8 020:672 JLINK_ReadReg(FPS7)  returns 0x00000000 (0000ms, 0644ms total)
T45D8 020:672 JLINK_ReadReg(FPS8)  returns 0x00000000 (0001ms, 0645ms total)
T45D8 020:673 JLINK_ReadReg(FPS9)  returns 0x00000000 (0000ms, 0645ms total)
T45D8 020:673 JLINK_ReadReg(FPS10)  returns 0x00000000 (0000ms, 0645ms total)
T45D8 020:673 JLINK_ReadReg(FPS11)  returns 0x00000000 (0000ms, 0645ms total)
T45D8 020:673 JLINK_ReadReg(FPS12)  returns 0x00000000 (0000ms, 0645ms total)
T45D8 020:673 JLINK_ReadReg(FPS13)  returns 0x00000000 (0000ms, 0645ms total)
T45D8 020:673 JLINK_ReadReg(FPS14)  returns 0x00000000 (0000ms, 0645ms total)
T45D8 020:673 JLINK_ReadReg(FPS15)  returns 0x00000000 (0000ms, 0645ms total)
T45D8 020:673 JLINK_ReadReg(FPS16)  returns 0x00000000 (0000ms, 0645ms total)
T4350 020:675 JLINK_ReadMem (0x20000754, 0x0004 Bytes, ...) -- Read from C cache (4 bytes @ 0x20000754) -- Data:  17 02 00 08  returns 0x00 (0000ms, 0645ms total)
T4350 020:676 JLINK_ReadMem (0x00000000, 0x0004 Bytes, ...) -- CPU_ReadMem(4 bytes @ 0x00000004) -- CPU_ReadMem(64 bytes @ 0x08000000) -- Updating C cache (64 bytes @ 0x08000000) -- Read from C cache (4 bytes @ 0x08000000) -- Data:  58 07 00 20  returns 0x00 (0001ms, 0646ms total)
T4350 020:691 JLINK_ReadMem (0x20000740, 0x0004 Bytes, ...) -- Read from C cache (4 bytes @ 0x20000740) -- Data:  58 01 00 20  returns 0x00 (0000ms, 0646ms total)
T4350 020:691 JLINK_ReadMem (0x20000744, 0x0004 Bytes, ...) -- Read from C cache (4 bytes @ 0x20000744) -- Data:  58 03 00 20  returns 0x00 (0000ms, 0646ms total)
T4350 020:691 JLINK_ReadMem (0x20000748, 0x0004 Bytes, ...) -- Read from C cache (4 bytes @ 0x20000748) -- Data:  58 03 00 20  returns 0x00 (0000ms, 0646ms total)
T4350 020:691 JLINK_ReadMem (0x2000074C, 0x0004 Bytes, ...) -- Read from C cache (4 bytes @ 0x2000074C) -- Data:  58 03 00 20  returns 0x00 (0000ms, 0646ms total)
T4350 020:691 JLINK_ReadMemU32(0xE0001004, 0x0001 Items, ...) -- Data:  98 2B 00 00  returns 0x01 (0000ms, 0646ms total)
T4350 020:696 JLINK_ReadMem (0x08000A26, 0x0002 Bytes, ...) -- CPU_ReadMem(64 bytes @ 0x08000A00) -- Updating C cache (64 bytes @ 0x08000A00) -- Read from C cache (2 bytes @ 0x08000A26) -- Data:  F0 B5  returns 0x00 (0001ms, 0647ms total)
T4350 020:697 JLINK_ReadMem (0x08000A28, 0x003C Bytes, ...) -- CPU_ReadMem(64 bytes @ 0x08000A40) -- Updating C cache (64 bytes @ 0x08000A40) -- Read from C cache (60 bytes @ 0x08000A28) -- Data:  00 21 00 22 00 24 02 25 00 26 02 23 71 4F 08 37 ...  returns 0x00 (0002ms, 0649ms total)
T45D8 023:085 JLINK_Step() -- Read from C cache (2 bytes @ 0x08000A26) -- CPU_WriteMem(20 bytes @ 0x2000072C) -- Simulated  returns 0x00 (0002ms, 0651ms total)
T45D8 023:087 JLINK_ReadReg(R15 (PC))  returns 0x08000A28 (0000ms, 0651ms total)
T45D8 023:087 JLINK_ReadReg(XPSR)  returns 0x21000000 (0000ms, 0651ms total)
T45D8 023:087 JLINK_ReadReg(R0)  returns 0x20000740 (0000ms, 0651ms total)
T45D8 023:087 JLINK_ReadReg(R1)  returns 0x20000358 (0000ms, 0651ms total)
T45D8 023:087 JLINK_ReadReg(R2)  returns 0x20000358 (0000ms, 0651ms total)
T45D8 023:087 JLINK_ReadReg(R3)  returns 0x20000358 (0000ms, 0651ms total)
T45D8 023:087 JLINK_ReadReg(R4)  returns 0x00000000 (0000ms, 0651ms total)
T45D8 023:088 JLINK_ReadReg(R5)  returns 0x200000F4 (0000ms, 0652ms total)
T45D8 023:088 JLINK_ReadReg(R6)  returns 0x00000000 (0000ms, 0652ms total)
T45D8 023:088 JLINK_ReadReg(R7)  returns 0x00000000 (0000ms, 0652ms total)
T45D8 023:088 JLINK_ReadReg(R8)  returns 0x00000000 (0000ms, 0652ms total)
T45D8 023:088 JLINK_ReadReg(R9)  returns 0x00000000 (0000ms, 0652ms total)
T45D8 023:088 JLINK_ReadReg(R10)  returns 0x080014A4 (0000ms, 0652ms total)
T45D8 023:088 JLINK_ReadReg(R11)  returns 0x00000000 (0000ms, 0652ms total)
T45D8 023:088 JLINK_ReadReg(R12)  returns 0x20000134 (0000ms, 0652ms total)
T45D8 023:088 JLINK_ReadReg(R13 (SP))  returns 0x2000072C (0000ms, 0652ms total)
T45D8 023:088 JLINK_ReadReg(R14)  returns 0x0800022F (0000ms, 0652ms total)
T45D8 023:088 JLINK_ReadReg(R15 (PC))  returns 0x08000A28 (0000ms, 0652ms total)
T45D8 023:088 JLINK_ReadReg(XPSR)  returns 0x21000000 (0000ms, 0652ms total)
T45D8 023:088 JLINK_ReadReg(MSP)  returns 0x2000072C (0000ms, 0652ms total)
T45D8 023:088 JLINK_ReadReg(PSP)  returns 0x00000000 (0000ms, 0652ms total)
T45D8 023:088 JLINK_ReadReg(CFBP)  returns 0x04000000 (0000ms, 0652ms total)
T45D8 023:088 JLINK_ReadReg(FPSCR)  returns 0x03000000 (0000ms, 0652ms total)
T45D8 023:088 JLINK_ReadReg(FPS0)  returns 0x00000000 (0001ms, 0653ms total)
T45D8 023:089 JLINK_ReadReg(FPS1)  returns 0x00000000 (0000ms, 0653ms total)
T45D8 023:089 JLINK_ReadReg(FPS2)  returns 0x00000000 (0000ms, 0653ms total)
T45D8 023:089 JLINK_ReadReg(FPS3)  returns 0x00000000 (0000ms, 0653ms total)
T45D8 023:089 JLINK_ReadReg(FPS4)  returns 0x00000000 (0000ms, 0653ms total)
T45D8 023:089 JLINK_ReadReg(FPS5)  returns 0x00000000 (0000ms, 0653ms total)
T45D8 023:089 JLINK_ReadReg(FPS6)  returns 0x00000000 (0000ms, 0653ms total)
T45D8 023:089 JLINK_ReadReg(FPS7)  returns 0x00000000 (0000ms, 0653ms total)
T45D8 023:089 JLINK_ReadReg(FPS8)  returns 0x00000000 (0000ms, 0653ms total)
T45D8 023:089 JLINK_ReadReg(FPS9)  returns 0x00000000 (0000ms, 0653ms total)
T45D8 023:089 JLINK_ReadReg(FPS10)  returns 0x00000000 (0000ms, 0653ms total)
T45D8 023:089 JLINK_ReadReg(FPS11)  returns 0x00000000 (0000ms, 0653ms total)
T45D8 023:089 JLINK_ReadReg(FPS12)  returns 0x00000000 (0000ms, 0653ms total)
T45D8 023:089 JLINK_ReadReg(FPS13)  returns 0x00000000 (0000ms, 0653ms total)
T45D8 023:089 JLINK_ReadReg(FPS14)  returns 0x00000000 (0000ms, 0653ms total)
T45D8 023:089 JLINK_ReadReg(FPS15)  returns 0x00000000 (0000ms, 0653ms total)
T45D8 023:089 JLINK_ReadReg(FPS16)  returns 0x00000000 (0000ms, 0653ms total)
T45D8 023:089 JLINK_ReadReg(FPS17)  returns 0x00000000 (0000ms, 0653ms total)
T45D8 023:089 JLINK_ReadReg(FPS18)  returns 0x00000000 (0001ms, 0654ms total)
T45D8 023:090 JLINK_ReadReg(FPS19)  returns 0x00000000 (0000ms, 0654ms total)
T45D8 023:090 JLINK_ReadReg(FPS20)  returns 0x00000000 (0000ms, 0654ms total)
T45D8 023:090 JLINK_ReadReg(FPS31)  returns 0x00000000 (0000ms, 0654ms total)
T45D8 023:090 JLINK_ReadReg(FPS7)  returns 0x00000000 (0000ms, 0654ms total)
T45D8 023:090 JLINK_ReadReg(FPS8)  returns 0x00000000 (0000ms, 0654ms total)
T45D8 023:090 JLINK_ReadReg(FPS9)  returns 0x00000000 (0000ms, 0654ms total)
T45D8 023:090 JLINK_ReadReg(FPS10)  returns 0x00000000 (0000ms, 0654ms total)
T45D8 023:090 JLINK_ReadReg(FPS11)  returns 0x00000000 (0000ms, 0654ms total)
T45D8 023:090 JLINK_ReadReg(FPS12)  returns 0x00000000 (0000ms, 0654ms total)
T45D8 023:090 JLINK_ReadReg(FPS13)  returns 0x00000000 (0000ms, 0654ms total)
T45D8 023:090 JLINK_ReadReg(FPS14)  returns 0x00000000 (0000ms, 0654ms total)
T45D8 023:090 JLINK_ReadReg(FPS15)  returns 0x00000000 (0000ms, 0654ms total)
T45D8 023:090 JLINK_ReadReg(FPS16)  returns 0x00000000 (0000ms, 0654ms total)
T4350 023:092 JLINK_ReadMem (0x2000073C, 0x0004 Bytes, ...) -- CPU_ReadMem(64 bytes @ 0x20000700) -- Updating C cache (64 bytes @ 0x20000700) -- Read from C cache (4 bytes @ 0x2000073C) -- Data:  2F 02 00 08  returns 0x00 (0001ms, 0655ms total)
T4350 023:093 JLINK_ReadMem (0x2000072C, 0x0004 Bytes, ...) -- Read from C cache (4 bytes @ 0x2000072C) -- Data:  00 00 00 00  returns 0x00 (0000ms, 0655ms total)
T4350 023:093 JLINK_ReadMem (0x20000730, 0x0004 Bytes, ...) -- Read from C cache (4 bytes @ 0x20000730) -- Data:  F4 00 00 20  returns 0x00 (0000ms, 0655ms total)
T4350 023:093 JLINK_ReadMem (0x20000734, 0x0004 Bytes, ...) -- Read from C cache (4 bytes @ 0x20000734) -- Data:  00 00 00 00  returns 0x00 (0000ms, 0655ms total)
T4350 023:093 JLINK_ReadMem (0x20000738, 0x0004 Bytes, ...) -- Read from C cache (4 bytes @ 0x20000738) -- Data:  00 00 00 00  returns 0x00 (0000ms, 0655ms total)
T4350 023:093 JLINK_ReadMem (0x20000754, 0x0004 Bytes, ...) -- Read from C cache (4 bytes @ 0x20000754) -- Data:  17 02 00 08  returns 0x00 (0000ms, 0655ms total)
T4350 023:094 JLINK_ReadMem (0x20000740, 0x0004 Bytes, ...) -- Read from C cache (4 bytes @ 0x20000740) -- Data:  58 01 00 20  returns 0x00 (0000ms, 0655ms total)
T4350 023:094 JLINK_ReadMem (0x20000744, 0x0004 Bytes, ...) -- Read from C cache (4 bytes @ 0x20000744) -- Data:  58 03 00 20  returns 0x00 (0000ms, 0655ms total)
T4350 023:094 JLINK_ReadMem (0x20000748, 0x0004 Bytes, ...) -- Read from C cache (4 bytes @ 0x20000748) -- Data:  58 03 00 20  returns 0x00 (0000ms, 0655ms total)
T4350 023:094 JLINK_ReadMem (0x2000074C, 0x0004 Bytes, ...) -- Read from C cache (4 bytes @ 0x2000074C) -- Data:  58 03 00 20  returns 0x00 (0000ms, 0655ms total)
T4350 023:094 JLINK_ReadMemU32(0xE0001004, 0x0001 Items, ...) -- Data:  98 2B 00 00  returns 0x01 (0000ms, 0655ms total)
T4350 023:097 JLINK_ReadMem (0x08000A28, 0x003C Bytes, ...) -- Read from C cache (60 bytes @ 0x08000A28) -- Data:  00 21 00 22 00 24 02 25 00 26 02 23 71 4F 08 37 ...  returns 0x00 (0001ms, 0656ms total)
T45D8 023:548 JLINK_Step() -- Read from C cache (2 bytes @ 0x08000A28) -- Simulated  returns 0x00 (0000ms, 0656ms total)
T45D8 023:548 JLINK_ReadReg(R15 (PC))  returns 0x08000A2A (0000ms, 0656ms total)
T45D8 023:548 JLINK_ReadReg(XPSR)  returns 0x61000000 (0000ms, 0656ms total)
T45D8 023:549 JLINK_ReadReg(R0)  returns 0x20000740 (0000ms, 0656ms total)
T45D8 023:549 JLINK_ReadReg(R1)  returns 0x00000000 (0000ms, 0656ms total)
T45D8 023:549 JLINK_ReadReg(R2)  returns 0x20000358 (0000ms, 0656ms total)
T45D8 023:549 JLINK_ReadReg(R3)  returns 0x20000358 (0000ms, 0656ms total)
T45D8 023:549 JLINK_ReadReg(R4)  returns 0x00000000 (0000ms, 0656ms total)
T45D8 023:549 JLINK_ReadReg(R5)  returns 0x200000F4 (0000ms, 0656ms total)
T45D8 023:549 JLINK_ReadReg(R6)  returns 0x00000000 (0000ms, 0656ms total)
T45D8 023:549 JLINK_ReadReg(R7)  returns 0x00000000 (0000ms, 0656ms total)
T45D8 023:549 JLINK_ReadReg(R8)  returns 0x00000000 (0000ms, 0656ms total)
T45D8 023:549 JLINK_ReadReg(R9)  returns 0x00000000 (0000ms, 0656ms total)
T45D8 023:549 JLINK_ReadReg(R10)  returns 0x080014A4 (0000ms, 0656ms total)
T45D8 023:549 JLINK_ReadReg(R11)  returns 0x00000000 (0000ms, 0656ms total)
T45D8 023:549 JLINK_ReadReg(R12)  returns 0x20000134 (0000ms, 0656ms total)
T45D8 023:549 JLINK_ReadReg(R13 (SP))  returns 0x2000072C (0000ms, 0656ms total)
T45D8 023:549 JLINK_ReadReg(R14)  returns 0x0800022F (0000ms, 0656ms total)
T45D8 023:549 JLINK_ReadReg(R15 (PC))  returns 0x08000A2A (0000ms, 0656ms total)
T45D8 023:549 JLINK_ReadReg(XPSR)  returns 0x61000000 (0000ms, 0656ms total)
T45D8 023:550 JLINK_ReadReg(MSP)  returns 0x2000072C (0000ms, 0657ms total)
T45D8 023:550 JLINK_ReadReg(PSP)  returns 0x00000000 (0000ms, 0657ms total)
T45D8 023:550 JLINK_ReadReg(CFBP)  returns 0x04000000 (0000ms, 0657ms total)
T45D8 023:550 JLINK_ReadReg(FPSCR)  returns 0x03000000 (0000ms, 0657ms total)
T45D8 023:550 JLINK_ReadReg(FPS0)  returns 0x00000000 (0000ms, 0657ms total)
T45D8 023:550 JLINK_ReadReg(FPS1)  returns 0x00000000 (0000ms, 0657ms total)
T45D8 023:550 JLINK_ReadReg(FPS2)  returns 0x00000000 (0000ms, 0657ms total)
T45D8 023:550 JLINK_ReadReg(FPS3)  returns 0x00000000 (0000ms, 0657ms total)
T45D8 023:550 JLINK_ReadReg(FPS4)  returns 0x00000000 (0000ms, 0657ms total)
T45D8 023:550 JLINK_ReadReg(FPS5)  returns 0x00000000 (0000ms, 0657ms total)
T45D8 023:550 JLINK_ReadReg(FPS6)  returns 0x00000000 (0000ms, 0657ms total)
T45D8 023:550 JLINK_ReadReg(FPS7)  returns 0x00000000 (0000ms, 0657ms total)
T45D8 023:550 JLINK_ReadReg(FPS8)  returns 0x00000000 (0000ms, 0657ms total)
T45D8 023:550 JLINK_ReadReg(FPS9)  returns 0x00000000 (0000ms, 0657ms total)
T45D8 023:550 JLINK_ReadReg(FPS10)  returns 0x00000000 (0000ms, 0657ms total)
T45D8 023:550 JLINK_ReadReg(FPS11)  returns 0x00000000 (0000ms, 0657ms total)
T45D8 023:550 JLINK_ReadReg(FPS12)  returns 0x00000000 (0000ms, 0657ms total)
T45D8 023:550 JLINK_ReadReg(FPS13)  returns 0x00000000 (0000ms, 0657ms total)
T45D8 023:551 JLINK_ReadReg(FPS14)  returns 0x00000000 (0000ms, 0658ms total)
T45D8 023:551 JLINK_ReadReg(FPS15)  returns 0x00000000 (0000ms, 0658ms total)
T45D8 023:551 JLINK_ReadReg(FPS16)  returns 0x00000000 (0000ms, 0658ms total)
T45D8 023:551 JLINK_ReadReg(FPS17)  returns 0x00000000 (0000ms, 0658ms total)
T45D8 023:551 JLINK_ReadReg(FPS18)  returns 0x00000000 (0000ms, 0658ms total)
T45D8 023:551 JLINK_ReadReg(FPS19)  returns 0x00000000 (0000ms, 0658ms total)
T45D8 023:551 JLINK_ReadReg(FPS20)  returns 0x00000000 (0000ms, 0658ms total)
T45D8 023:551 JLINK_ReadReg(FPS31)  returns 0x00000000 (0000ms, 0658ms total)
T45D8 023:551 JLINK_ReadReg(FPS7)  returns 0x00000000 (0000ms, 0658ms total)
T45D8 023:551 JLINK_ReadReg(FPS8)  returns 0x00000000 (0000ms, 0658ms total)
T45D8 023:551 JLINK_ReadReg(FPS9)  returns 0x00000000 (0000ms, 0658ms total)
T45D8 023:551 JLINK_ReadReg(FPS10)  returns 0x00000000 (0000ms, 0658ms total)
T45D8 023:551 JLINK_ReadReg(FPS11)  returns 0x00000000 (0000ms, 0658ms total)
T45D8 023:551 JLINK_ReadReg(FPS12)  returns 0x00000000 (0000ms, 0658ms total)
T45D8 023:551 JLINK_ReadReg(FPS13)  returns 0x00000000 (0000ms, 0658ms total)
T45D8 023:551 JLINK_ReadReg(FPS14)  returns 0x00000000 (0000ms, 0658ms total)
T45D8 023:551 JLINK_ReadReg(FPS15)  returns 0x00000000 (0000ms, 0658ms total)
T45D8 023:552 JLINK_ReadReg(FPS16)  returns 0x00000000 (0000ms, 0658ms total)
T4350 023:556 JLINK_ReadMem (0x2000073C, 0x0004 Bytes, ...) -- Read from C cache (4 bytes @ 0x2000073C) -- Data:  2F 02 00 08  returns 0x00 (0000ms, 0658ms total)
T4350 023:556 JLINK_ReadMem (0x2000072C, 0x0004 Bytes, ...) -- Read from C cache (4 bytes @ 0x2000072C) -- Data:  00 00 00 00  returns 0x00 (0000ms, 0658ms total)
T4350 023:556 JLINK_ReadMem (0x20000730, 0x0004 Bytes, ...) -- Read from C cache (4 bytes @ 0x20000730) -- Data:  F4 00 00 20  returns 0x00 (0000ms, 0658ms total)
T4350 023:556 JLINK_ReadMem (0x20000734, 0x0004 Bytes, ...) -- Read from C cache (4 bytes @ 0x20000734) -- Data:  00 00 00 00  returns 0x00 (0000ms, 0658ms total)
T4350 023:556 JLINK_ReadMem (0x20000738, 0x0004 Bytes, ...) -- Read from C cache (4 bytes @ 0x20000738) -- Data:  00 00 00 00  returns 0x00 (0000ms, 0658ms total)
T4350 023:556 JLINK_ReadMem (0x20000754, 0x0004 Bytes, ...) -- Read from C cache (4 bytes @ 0x20000754) -- Data:  17 02 00 08  returns 0x00 (0000ms, 0658ms total)
T4350 023:557 JLINK_ReadMem (0x20000740, 0x0004 Bytes, ...) -- Read from C cache (4 bytes @ 0x20000740) -- Data:  58 01 00 20  returns 0x00 (0000ms, 0658ms total)
T4350 023:557 JLINK_ReadMem (0x20000744, 0x0004 Bytes, ...) -- Read from C cache (4 bytes @ 0x20000744) -- Data:  58 03 00 20  returns 0x00 (0001ms, 0659ms total)
T4350 023:558 JLINK_ReadMem (0x20000748, 0x0004 Bytes, ...) -- Read from C cache (4 bytes @ 0x20000748) -- Data:  58 03 00 20  returns 0x00 (0000ms, 0659ms total)
T4350 023:558 JLINK_ReadMem (0x2000074C, 0x0004 Bytes, ...) -- Read from C cache (4 bytes @ 0x2000074C) -- Data:  58 03 00 20  returns 0x00 (0000ms, 0659ms total)
T4350 023:558 JLINK_ReadMemU32(0xE0001004, 0x0001 Items, ...) -- Data:  98 2B 00 00  returns 0x01 (0000ms, 0659ms total)
T4350 023:562 JLINK_ReadMem (0x08000A2A, 0x0002 Bytes, ...) -- Read from C cache (2 bytes @ 0x08000A2A) -- Data:  00 22  returns 0x00 (0001ms, 0660ms total)
T4350 023:563 JLINK_ReadMem (0x08000A2C, 0x003C Bytes, ...) -- Read from C cache (60 bytes @ 0x08000A2C) -- Data:  00 24 02 25 00 26 02 23 71 4F 08 37 3F 68 07 F0 ...  returns 0x00 (0000ms, 0660ms total)
T45D8 023:787 JLINK_Step() -- Read from C cache (2 bytes @ 0x08000A2A) -- Simulated  returns 0x00 (0000ms, 0660ms total)
T45D8 023:787 JLINK_ReadReg(R15 (PC))  returns 0x08000A2C (0001ms, 0661ms total)
T45D8 023:788 JLINK_ReadReg(XPSR)  returns 0x61000000 (0000ms, 0661ms total)
T45D8 023:788 JLINK_ReadReg(R0)  returns 0x20000740 (0000ms, 0661ms total)
T45D8 023:788 JLINK_ReadReg(R1)  returns 0x00000000 (0000ms, 0661ms total)
T45D8 023:788 JLINK_ReadReg(R2)  returns 0x00000000 (0000ms, 0661ms total)
T45D8 023:788 JLINK_ReadReg(R3)  returns 0x20000358 (0000ms, 0661ms total)
T45D8 023:788 JLINK_ReadReg(R4)  returns 0x00000000 (0000ms, 0661ms total)
T45D8 023:788 JLINK_ReadReg(R5)  returns 0x200000F4 (0000ms, 0661ms total)
T45D8 023:788 JLINK_ReadReg(R6)  returns 0x00000000 (0000ms, 0661ms total)
T45D8 023:788 JLINK_ReadReg(R7)  returns 0x00000000 (0000ms, 0661ms total)
T45D8 023:788 JLINK_ReadReg(R8)  returns 0x00000000 (0000ms, 0661ms total)
T45D8 023:788 JLINK_ReadReg(R9)  returns 0x00000000 (0000ms, 0661ms total)
T45D8 023:788 JLINK_ReadReg(R10)  returns 0x080014A4 (0000ms, 0661ms total)
T45D8 023:788 JLINK_ReadReg(R11)  returns 0x00000000 (0000ms, 0661ms total)
T45D8 023:788 JLINK_ReadReg(R12)  returns 0x20000134 (0000ms, 0661ms total)
T45D8 023:788 JLINK_ReadReg(R13 (SP))  returns 0x2000072C (0000ms, 0661ms total)
T45D8 023:788 JLINK_ReadReg(R14)  returns 0x0800022F (0001ms, 0662ms total)
T45D8 023:789 JLINK_ReadReg(R15 (PC))  returns 0x08000A2C (0000ms, 0662ms total)
T45D8 023:789 JLINK_ReadReg(XPSR)  returns 0x61000000 (0000ms, 0662ms total)
T45D8 023:789 JLINK_ReadReg(MSP)  returns 0x2000072C (0000ms, 0662ms total)
T45D8 023:789 JLINK_ReadReg(PSP)  returns 0x00000000 (0000ms, 0662ms total)
T45D8 023:789 JLINK_ReadReg(CFBP)  returns 0x04000000 (0000ms, 0662ms total)
T45D8 023:789 JLINK_ReadReg(FPSCR)  returns 0x03000000 (0000ms, 0662ms total)
T45D8 023:789 JLINK_ReadReg(FPS0)  returns 0x00000000 (0000ms, 0662ms total)
T45D8 023:789 JLINK_ReadReg(FPS1)  returns 0x00000000 (0000ms, 0662ms total)
T45D8 023:789 JLINK_ReadReg(FPS2)  returns 0x00000000 (0000ms, 0662ms total)
T45D8 023:789 JLINK_ReadReg(FPS3)  returns 0x00000000 (0000ms, 0662ms total)
T45D8 023:789 JLINK_ReadReg(FPS4)  returns 0x00000000 (0000ms, 0662ms total)
T45D8 023:789 JLINK_ReadReg(FPS5)  returns 0x00000000 (0000ms, 0662ms total)
T45D8 023:789 JLINK_ReadReg(FPS6)  returns 0x00000000 (0000ms, 0662ms total)
T45D8 023:789 JLINK_ReadReg(FPS7)  returns 0x00000000 (0000ms, 0662ms total)
T45D8 023:789 JLINK_ReadReg(FPS8)  returns 0x00000000 (0000ms, 0662ms total)
T45D8 023:789 JLINK_ReadReg(FPS9)  returns 0x00000000 (0000ms, 0662ms total)
T45D8 023:789 JLINK_ReadReg(FPS10)  returns 0x00000000 (0000ms, 0662ms total)
T45D8 023:789 JLINK_ReadReg(FPS11)  returns 0x00000000 (0001ms, 0663ms total)
T45D8 023:790 JLINK_ReadReg(FPS12)  returns 0x00000000 (0000ms, 0663ms total)
T45D8 023:790 JLINK_ReadReg(FPS13)  returns 0x00000000 (0000ms, 0663ms total)
T45D8 023:790 JLINK_ReadReg(FPS14)  returns 0x00000000 (0000ms, 0663ms total)
T45D8 023:790 JLINK_ReadReg(FPS15)  returns 0x00000000 (0000ms, 0663ms total)
T45D8 023:790 JLINK_ReadReg(FPS16)  returns 0x00000000 (0000ms, 0663ms total)
T45D8 023:790 JLINK_ReadReg(FPS17)  returns 0x00000000 (0000ms, 0663ms total)
T45D8 023:790 JLINK_ReadReg(FPS18)  returns 0x00000000 (0000ms, 0663ms total)
T45D8 023:790 JLINK_ReadReg(FPS19)  returns 0x00000000 (0000ms, 0663ms total)
T45D8 023:790 JLINK_ReadReg(FPS20)  returns 0x00000000 (0000ms, 0663ms total)
T45D8 023:790 JLINK_ReadReg(FPS31)  returns 0x00000000 (0000ms, 0663ms total)
T45D8 023:790 JLINK_ReadReg(FPS7)  returns 0x00000000 (0000ms, 0663ms total)
T45D8 023:790 JLINK_ReadReg(FPS8)  returns 0x00000000 (0000ms, 0663ms total)
T45D8 023:790 JLINK_ReadReg(FPS9)  returns 0x00000000 (0000ms, 0663ms total)
T45D8 023:790 JLINK_ReadReg(FPS10)  returns 0x00000000 (0000ms, 0663ms total)
T45D8 023:790 JLINK_ReadReg(FPS11)  returns 0x00000000 (0000ms, 0663ms total)
T45D8 023:790 JLINK_ReadReg(FPS12)  returns 0x00000000 (0000ms, 0663ms total)
T45D8 023:790 JLINK_ReadReg(FPS13)  returns 0x00000000 (0000ms, 0663ms total)
T45D8 023:790 JLINK_ReadReg(FPS14)  returns 0x00000000 (0001ms, 0664ms total)
T45D8 023:791 JLINK_ReadReg(FPS15)  returns 0x00000000 (0000ms, 0664ms total)
T45D8 023:791 JLINK_ReadReg(FPS16)  returns 0x00000000 (0000ms, 0664ms total)
T4350 023:794 JLINK_ReadMem (0x2000073C, 0x0004 Bytes, ...) -- Read from C cache (4 bytes @ 0x2000073C) -- Data:  2F 02 00 08  returns 0x00 (0000ms, 0664ms total)
T4350 023:794 JLINK_ReadMem (0x2000072C, 0x0004 Bytes, ...) -- Read from C cache (4 bytes @ 0x2000072C) -- Data:  00 00 00 00  returns 0x00 (0000ms, 0664ms total)
T4350 023:794 JLINK_ReadMem (0x20000730, 0x0004 Bytes, ...) -- Read from C cache (4 bytes @ 0x20000730) -- Data:  F4 00 00 20  returns 0x00 (0000ms, 0664ms total)
T4350 023:794 JLINK_ReadMem (0x20000734, 0x0004 Bytes, ...) -- Read from C cache (4 bytes @ 0x20000734) -- Data:  00 00 00 00  returns 0x00 (0000ms, 0664ms total)
T4350 023:794 JLINK_ReadMem (0x20000738, 0x0004 Bytes, ...) -- Read from C cache (4 bytes @ 0x20000738) -- Data:  00 00 00 00  returns 0x00 (0000ms, 0664ms total)
T4350 023:795 JLINK_ReadMem (0x20000754, 0x0004 Bytes, ...) -- Read from C cache (4 bytes @ 0x20000754) -- Data:  17 02 00 08  returns 0x00 (0000ms, 0665ms total)
T4350 023:795 JLINK_ReadMem (0x20000740, 0x0004 Bytes, ...) -- Read from C cache (4 bytes @ 0x20000740) -- Data:  58 01 00 20  returns 0x00 (0000ms, 0665ms total)
T4350 023:795 JLINK_ReadMem (0x20000744, 0x0004 Bytes, ...) -- Read from C cache (4 bytes @ 0x20000744) -- Data:  58 03 00 20  returns 0x00 (0000ms, 0665ms total)
T4350 023:795 JLINK_ReadMem (0x20000748, 0x0004 Bytes, ...) -- Read from C cache (4 bytes @ 0x20000748) -- Data:  58 03 00 20  returns 0x00 (0001ms, 0666ms total)
T4350 023:796 JLINK_ReadMem (0x2000074C, 0x0004 Bytes, ...) -- Read from C cache (4 bytes @ 0x2000074C) -- Data:  58 03 00 20  returns 0x00 (0000ms, 0666ms total)
T4350 023:796 JLINK_ReadMemU32(0xE0001004, 0x0001 Items, ...) -- Data:  98 2B 00 00  returns 0x01 (0000ms, 0666ms total)
T45D8 023:968 JLINK_ReadMem (0x08000A2C, 0x003C Bytes, ...) -- Read from C cache (60 bytes @ 0x08000A2C) -- Data:  00 24 02 25 00 26 02 23 71 4F 08 37 3F 68 07 F0 ...  returns 0x00 (0001ms, 0667ms total)
T45D8 023:969 JLINK_Step() -- Read from C cache (2 bytes @ 0x08000A2C) -- Simulated  returns 0x00 (0000ms, 0667ms total)
T45D8 023:969 JLINK_ReadReg(R15 (PC))  returns 0x08000A2E (0000ms, 0667ms total)
T45D8 023:969 JLINK_ReadReg(XPSR)  returns 0x61000000 (0000ms, 0667ms total)
T45D8 023:969 JLINK_ReadReg(R0)  returns 0x20000740 (0000ms, 0667ms total)
T45D8 023:969 JLINK_ReadReg(R1)  returns 0x00000000 (0000ms, 0667ms total)
T45D8 023:969 JLINK_ReadReg(R2)  returns 0x00000000 (0000ms, 0667ms total)
T45D8 023:969 JLINK_ReadReg(R3)  returns 0x20000358 (0000ms, 0667ms total)
T45D8 023:969 JLINK_ReadReg(R4)  returns 0x00000000 (0000ms, 0667ms total)
T45D8 023:969 JLINK_ReadReg(R5)  returns 0x200000F4 (0000ms, 0667ms total)
T45D8 023:969 JLINK_ReadReg(R6)  returns 0x00000000 (0000ms, 0667ms total)
T45D8 023:969 JLINK_ReadReg(R7)  returns 0x00000000 (0000ms, 0667ms total)
T45D8 023:969 JLINK_ReadReg(R8)  returns 0x00000000 (0000ms, 0667ms total)
T45D8 023:969 JLINK_ReadReg(R9)  returns 0x00000000 (0000ms, 0667ms total)
T45D8 023:969 JLINK_ReadReg(R10)  returns 0x080014A4 (0001ms, 0668ms total)
T45D8 023:970 JLINK_ReadReg(R11)  returns 0x00000000 (0000ms, 0668ms total)
T45D8 023:970 JLINK_ReadReg(R12)  returns 0x20000134 (0000ms, 0668ms total)
T45D8 023:970 JLINK_ReadReg(R13 (SP))  returns 0x2000072C (0000ms, 0668ms total)
T45D8 023:970 JLINK_ReadReg(R14)  returns 0x0800022F (0000ms, 0668ms total)
T45D8 023:970 JLINK_ReadReg(R15 (PC))  returns 0x08000A2E (0000ms, 0668ms total)
T45D8 023:970 JLINK_ReadReg(XPSR)  returns 0x61000000 (0000ms, 0668ms total)
T45D8 023:970 JLINK_ReadReg(MSP)  returns 0x2000072C (0000ms, 0668ms total)
T45D8 023:970 JLINK_ReadReg(PSP)  returns 0x00000000 (0000ms, 0668ms total)
T45D8 023:970 JLINK_ReadReg(CFBP)  returns 0x04000000 (0000ms, 0668ms total)
T45D8 023:970 JLINK_ReadReg(FPSCR)  returns 0x03000000 (0000ms, 0668ms total)
T45D8 023:970 JLINK_ReadReg(FPS0)  returns 0x00000000 (0000ms, 0668ms total)
T45D8 023:970 JLINK_ReadReg(FPS1)  returns 0x00000000 (0000ms, 0668ms total)
T45D8 023:970 JLINK_ReadReg(FPS2)  returns 0x00000000 (0000ms, 0668ms total)
T45D8 023:970 JLINK_ReadReg(FPS3)  returns 0x00000000 (0000ms, 0668ms total)
T45D8 023:970 JLINK_ReadReg(FPS4)  returns 0x00000000 (0000ms, 0668ms total)
T45D8 023:970 JLINK_ReadReg(FPS5)  returns 0x00000000 (0000ms, 0668ms total)
T45D8 023:970 JLINK_ReadReg(FPS6)  returns 0x00000000 (0000ms, 0668ms total)
T45D8 023:970 JLINK_ReadReg(FPS7)  returns 0x00000000 (0000ms, 0668ms total)
T45D8 023:970 JLINK_ReadReg(FPS8)  returns 0x00000000 (0000ms, 0668ms total)
T45D8 023:970 JLINK_ReadReg(FPS9)  returns 0x00000000 (0000ms, 0668ms total)
T45D8 023:970 JLINK_ReadReg(FPS10)  returns 0x00000000 (0001ms, 0669ms total)
T45D8 023:971 JLINK_ReadReg(FPS11)  returns 0x00000000 (0000ms, 0669ms total)
T45D8 023:971 JLINK_ReadReg(FPS12)  returns 0x00000000 (0000ms, 0669ms total)
T45D8 023:971 JLINK_ReadReg(FPS13)  returns 0x00000000 (0000ms, 0669ms total)
T45D8 023:971 JLINK_ReadReg(FPS14)  returns 0x00000000 (0000ms, 0669ms total)
T45D8 023:971 JLINK_ReadReg(FPS15)  returns 0x00000000 (0000ms, 0669ms total)
T45D8 023:971 JLINK_ReadReg(FPS16)  returns 0x00000000 (0000ms, 0669ms total)
T45D8 023:971 JLINK_ReadReg(FPS17)  returns 0x00000000 (0000ms, 0669ms total)
T45D8 023:971 JLINK_ReadReg(FPS18)  returns 0x00000000 (0000ms, 0669ms total)
T45D8 023:971 JLINK_ReadReg(FPS19)  returns 0x00000000 (0000ms, 0669ms total)
T45D8 023:971 JLINK_ReadReg(FPS20)  returns 0x00000000 (0000ms, 0669ms total)
T45D8 023:971 JLINK_ReadReg(FPS31)  returns 0x00000000 (0000ms, 0669ms total)
T45D8 023:971 JLINK_ReadReg(FPS7)  returns 0x00000000 (0000ms, 0669ms total)
T45D8 023:971 JLINK_ReadReg(FPS8)  returns 0x00000000 (0000ms, 0669ms total)
T45D8 023:971 JLINK_ReadReg(FPS9)  returns 0x00000000 (0000ms, 0669ms total)
T45D8 023:971 JLINK_ReadReg(FPS10)  returns 0x00000000 (0000ms, 0669ms total)
